#Parameters = {r1=0.5; r2=10; N=5; gap=0.5; Linear_Spiral_cst_torrus_orientation=0; Linear_Spiral_cst_torrus_N=5; Linear_Spiral_cst_torrus_phi=15; Linear_Spiral_cst_torrus_ri=0.5; Linear_Spiral_cst_torrus_ra=10; Linear_Spiral_cst_torrus_h=102}
#"Frequency / GHz"	"Z1,1 [Real/Imaginary Part] [Re]"	"Z1,1 [Real/Imaginary Part] [Im]"
#-------------------------------------------------------------------------------------
0.0000000000000	0.089275038275521	0.13276026053145
0.00050000000000000	0.091359205513035	1.8843029211168
0.0010000000000000	0.093493526647024	3.6360461978756
0.0015000000000000	0.095678767560925	5.3880210199083
0.0020000000000000	0.097915729417396	7.1402583575405
0.0025000000000000	0.10020525038648	8.8927892243927
0.0030000000000000	0.10254820747729	10.645644679445
0.0035000000000000	0.10494551847750	12.398855829089
0.0040000000000000	0.10739814400917	14.152453829173
0.0045000000000000	0.10990708970761	15.906469887019
0.0050000000000000	0.11247340853184	17.660935263435
0.0055000000000000	0.11509820321422	19.415881274694
0.0060000000000000	0.11778262885926	21.171339294482
0.0065000000000000	0.12052789570134	22.927340755823
0.0070000000000000	0.12333527203078	24.683917152950
0.0075000000000000	0.12620608730038	26.441100043144
0.0080000000000000	0.12914173542317	28.198921048504
0.0085000000000000	0.13214367827512	29.957411857665
0.0090000000000000	0.13521344941475	31.716604227437
0.0095000000000000	0.13835265803537	33.476529984361
0.010000000000000	0.14156299316342	35.237221026171
0.010500000000000	0.14484622812082	36.998709323145
0.011000000000000	0.14820422526635	38.761026919328
0.011500000000000	0.15163894103640	40.524205933616
0.012000000000000	0.15515243130200	42.288278560676
0.012500000000000	0.15874685706389	44.053277071679
0.013000000000000	0.16242449050718	45.819233814827
0.013500000000000	0.16618772143552	47.586181215644
0.014000000000000	0.17003906411359	49.354151776998
0.014500000000000	0.17398116453644	51.123178078816
0.015000000000000	0.17801680815677	52.893292777468
0.015500000000000	0.18214892809441	54.664528604761
0.016000000000000	0.18638061385680	56.436918366493
0.016500000000000	0.19071512059986	58.210494940535
0.017000000000000	0.19515587895692	59.985291274345
0.017500000000000	0.19970650546790	61.761340381883
0.018000000000000	0.20437081363864	63.538675339814
0.018500000000000	0.20915282566010	65.317329282949
0.019000000000000	0.21405678481490	67.097335398795
0.019500000000000	0.21908716860538	68.878726921132
0.020000000000000	0.22424870262208	70.661537122485
0.020500000000000	0.22954637518406	72.445799305360
0.021000000000000	0.23498545276390	74.231546792092
0.021500000000000	0.24057149621767	76.018812913151
0.022000000000000	0.24631037782457	77.807630993702
0.022500000000000	0.25220829913729	79.598034338223
0.023000000000000	0.25827180962931	81.390056212959
0.023500000000000	0.26450782611440	83.183729825940
0.024000000000000	0.27092365289718	84.979088304293
0.024500000000000	0.27752700258370	86.776164668533
0.025000000000000	0.28432601747157	88.574991803483
0.025500000000000	0.29132929138271	90.375602425449
0.026000000000000	0.29854589179325	92.178029045223
0.026500000000000	0.30598538203902	93.982303926465
0.027000000000000	0.31365784332842	95.788459038952
0.027500000000000	0.32157389625681	97.596526006161
0.028000000000000	0.32974472136374	99.406536046588
0.028500000000000	0.33818207827324	101.21851990818
0.029000000000000	0.34689832275309	103.03250779520
0.029500000000000	0.35590642096664	104.84852928681
0.030000000000000	0.36521995999043	106.66661324663
0.030500000000000	0.37485315351083	108.48678772254
0.031000000000000	0.38482084138331	110.30907983590
0.031500000000000	0.39513848153440	112.13351565949
0.032000000000000	0.40582213232722	113.96012008338
0.032500000000000	0.41688842331145	115.78891666821
0.033000000000000	0.42835451177959	117.61992748524
0.033500000000000	0.44023802230825	119.45317294301
0.034000000000000	0.45255696584759	121.28867160030
0.034500000000000	0.46532963467047	123.12643996604
0.035000000000000	0.47857446867698	124.96649228664
0.035500000000000	0.49230988844536	126.80884032228
0.036000000000000	0.50655408940540	128.65349311445
0.036500000000000	0.52132479154929	130.50045674775
0.037000000000000	0.53663893815759	132.34973411053
0.037500000000000	0.55251233717388	134.20132466025
0.038000000000000	0.56895923842628	136.05522420131
0.038500000000000	0.58599184023565	137.91142468511
0.039000000000000	0.60361971944670	139.76991404463
0.039500000000000	0.62184918002824	141.63067607842
0.040000000000000	0.64068251706936	143.49369040185
0.040500000000000	0.66011719570384	145.35893248667
0.041000000000000	0.68014494792904	147.22637381263
0.041500000000000	0.70075079527672	149.09598215817
0.042000000000000	0.72191201123652	150.96772205904
0.042500000000000	0.74359704504230	152.84155546505
0.043000000000000	0.76576443725747	154.71744262466
0.043500000000000	0.78836176777445	156.59534322498
0.044000000000000	0.81132468798010	158.47521780899
0.044500000000000	0.83457609980349	160.35702948336
0.045000000000000	0.85802555499610	162.24074591723
0.045500000000000	0.88156895616424	164.12634161522
0.046000000000000	0.90508864579667	166.01380042641
0.046500000000000	0.92845396870595	167.90311822559
0.047000000000000	0.95152238501844	169.79430567580
0.047500000000000	0.97414119397021	171.68739095255
0.048000000000000	0.99614990164989	173.58242228551
0.048500000000000	1.0173832291648	175.47947015361
0.049000000000000	1.0376747122750	177.37862896072
0.049500000000000	1.0568607928950	179.28001802365
0.050000000000000	1.0747852508003	181.18378172493
0.050500000000000	1.0913037770580	183.09008872147
0.051000000000000	1.1062884546475	184.99913015452
0.051500000000000	1.1196318932504	186.91111687343
0.052000000000000	1.1312507681094	188.82627575872
0.052500000000000	1.1410885396883	190.74484530172
0.053000000000000	1.1491171803063	192.66707065911
0.053500000000000	1.1553378013618	194.59319844429
0.054000000000000	1.1597801532692	196.52347153742
0.054500000000000	1.1625010505945	198.45812419012
0.055000000000000	1.1635818482167	200.39737767021
0.055500000000000	1.1631251530873	202.34143664140
0.056000000000000	1.1612509939613	204.29048640830
0.056500000000000	1.1580926875966	206.24469108829
0.057000000000000	1.1537926337837	208.20419270470
0.057500000000000	1.1484982475379	210.16911113799
0.058000000000000	1.1423581995525	212.13954482748
0.058500000000000	1.1355190916150	214.11557208691
0.059000000000000	1.1281226474238	216.09725288395
0.059500000000000	1.1203034558134	218.08463093343
0.060000000000000	1.1121872661412	220.07773596464
0.060500000000000	1.1038898060673	222.07658604140
0.061000000000000	1.0955160710219	224.08118983511
0.061500000000000	1.0871600218577	226.09154877476
0.062000000000000	1.0789046211547	228.10765902041
0.062500000000000	1.0708221385648	230.12951322671
0.063000000000000	1.0629746593415	232.15710208036
0.063500000000000	1.0554147367410	234.19041560894
0.064000000000000	1.0481861370336	236.22944426878
0.064500000000000	1.0413246345607	238.27417982661
0.065000000000000	1.0348588225063	240.32461605436
0.065500000000000	1.0288109130636	242.38074925851
0.066000000000000	1.0231975074202	244.44257866639
0.066500000000000	1.0180303221276	246.51010669112
0.067000000000000	1.0133168629446	248.58333909564
0.067500000000000	1.0090610415596	250.66228507444
0.068000000000000	1.0052637331632	252.74695726954
0.068500000000000	1.0019232754311	254.83737173515
0.069000000000000	0.99903591100491	256.93354786340
0.069500000000000	0.99659617644544	259.03550828129
0.070000000000000	0.99459724165140	261.14327872772
0.070500000000000	0.99303120386486	263.25688791738
0.071000000000000	0.99188934050121	265.37636739710
0.071500000000000	0.99116232522424	267.50175139923
0.072000000000000	0.99084041127403	269.63307669529
0.072500000000000	0.99091358586077	271.77038245255
0.073000000000000	0.99137169941962	273.91371009541
0.073500000000000	0.99220457268411	276.06310317305
0.074000000000000	0.99340208480191	278.21860723394
0.074500000000000	0.99495424507323	280.38026970814
0.075000000000000	0.99685125050286	282.54813979736
0.075500000000000	0.99908353134466	284.72226837300
0.076000000000000	1.0016417866803	286.90270788202
0.076500000000000	1.0045170110843	289.08951226044
0.077000000000000	1.0077005142870	291.28273685414
0.077500000000000	1.0111839346758	293.48243834674
0.078000000000000	1.0149592478711	295.68867469394
0.078500000000000	1.0190187710266	297.90150506423
0.079000000000000	1.0233551638894	300.12098978523
0.079500000000000	1.0279614269990	302.34719029556
0.080000000000000	1.0328308977083	304.58016910162
0.080500000000000	1.0379572444435	306.81998973907
0.081000000000000	1.0433344595947	309.06671673846
0.081500000000000	1.0489568514145	311.32041559494
0.082000000000000	1.0548190350226	313.58115274144
0.082500000000000	1.0609159229682	315.84899552521
0.083000000000000	1.0672427154457	318.12401218742
0.083500000000000	1.0737948901561	320.40627184550
0.084000000000000	1.0805681923108	322.69584447803
0.084500000000000	1.0875586244327	324.99280091198
0.085000000000000	1.0947624364366	327.29721281204
0.085500000000000	1.1021761157434	329.60915267197
0.086000000000000	1.1097963777236	331.92869380765
0.086500000000000	1.1176201563757	334.25591035184
0.087000000000000	1.1256445951911	336.59087725042
0.087500000000000	1.1338670384986	338.93367025995
0.088000000000000	1.1422850229790	341.28436594660
0.088500000000000	1.1508962696308	343.64304168614
0.089000000000000	1.1596986759903	346.00977566510
0.089500000000000	1.1686903087585	348.38464688281
0.090000000000000	1.1778693967060	350.76773515444
0.090500000000000	1.1872343239486	353.15912111486
0.091000000000000	1.1967836235341	355.55888622324
0.091500000000000	1.2065159713503	357.96711276846
0.092000000000000	1.2164301803327	360.38388387514
0.092500000000000	1.2265251950101	362.80928351029
0.093000000000000	1.2368000862519	365.24339649064
0.093500000000000	1.2472540464351	367.68630849043
0.094000000000000	1.2578863847058	370.13810604980
0.094500000000000	1.2686965226152	372.59887658361
0.095000000000000	1.2796839900223	375.06870839085
0.095500000000000	1.2908484211065	377.54769066430
0.096000000000000	1.3021895507055	380.03591350088
0.096500000000000	1.3137072108558	382.53346791216
0.097000000000000	1.3254013275009	385.04044583544
0.097500000000000	1.3372719174113	387.55694014511
0.098000000000000	1.3493190853067	390.08304466448
0.098500000000000	1.3615430211547	392.61885417784
0.099000000000000	1.3739439975734	395.16446444298
0.099500000000000	1.3865223674895	397.71997220400
0.10000000000000	1.3992785618899	400.28547520448
0.10050000000000	1.4122130877173	402.86107220093
0.10100000000000	1.4253265259102	405.44686297664
0.10150000000000	1.4386195296480	408.04294835580
0.10200000000000	1.4520928225689	410.64943021795
0.10250000000000	1.4657471972116	413.26641151277
0.10300000000000	1.4795835135831	415.89399627513
0.10350000000000	1.4936026977919	418.53228964054
0.10400000000000	1.5078057407239	421.18139786082
0.10450000000000	1.5221936970080	423.84142832018
0.10500000000000	1.5367676838532	426.51248955154
0.10550000000000	1.5515288800811	429.19469125325
0.10600000000000	1.5664785253180	431.88814430601
0.10650000000000	1.5816179190845	434.59296079027
0.10700000000000	1.5969484200991	437.30925400382
0.10750000000000	1.6124714456883	440.03713847982
0.10800000000000	1.6281884710687	442.77673000505
0.10850000000000	1.6441010289661	445.52814563863
0.10900000000000	1.6602107091230	448.29150373097
0.10950000000000	1.6765191578454	451.06692394316
0.11000000000000	1.6930280777752	453.85452726661
0.11050000000000	1.7097392275144	456.65443604317
0.11100000000000	1.7266544215806	459.46677398552
0.11150000000000	1.7437755300662	462.29166619799
0.11200000000000	1.7611044786970	465.12923919773
0.11250000000000	1.7786432486263	467.97962093624
0.11300000000000	1.7963938765922	470.84294082137
0.11350000000000	1.8143584548293	473.71932973965
0.11400000000000	1.8325391312766	476.60892007904
0.11450000000000	1.8509381096297	479.51184575210
0.11500000000000	1.8695576495534	482.42824221960
0.11550000000000	1.8884000669854	485.35824651456
0.11600000000000	1.9074677342519	488.30199726666
0.11650000000000	1.9267630805496	491.25963472721
0.11700000000000	1.9462885921526	494.23130079448
0.11750000000000	1.9660468129428	497.21713903956
0.11800000000000	1.9860403447156	500.21729473268
0.11850000000000	2.0062718477637	503.23191486998
0.11900000000000	2.0267440413716	506.26114820082
0.11950000000000	2.0474597042160	509.30514525561
0.12000000000000	2.0684216752075	512.36405837408
0.12050000000000	2.0896328539022	515.43804173419
0.12100000000000	2.1110962013128	518.52725138148
0.12150000000000	2.1328147405260	521.63184525902
0.12200000000000	2.1547915574306	524.75198323795
0.12250000000000	2.1770298015243	527.88782714852
0.12300000000000	2.1995326868553	531.03954081181
0.12350000000000	2.2223034925412	534.20729007198
0.12400000000000	2.2453455640522	537.39124282918
0.12450000000000	2.2686623137666	540.59156907307
0.12500000000000	2.2922572222660	543.80844091700
0.12550000000000	2.3161338391236	547.04203263282
0.12600000000000	2.3402957839154	550.29252068640
0.12650000000000	2.3647467475455	553.56008377383
0.12700000000000	2.3894904930331	556.84490285829
0.12750000000000	2.4145308569729	560.14716120768
0.12800000000000	2.4398717504565	563.46704443300
0.12850000000000	2.4655171605178	566.80474052741
0.12900000000000	2.4914711512606	570.16043990619
0.12950000000000	2.5177378653204	573.53433544732
0.13000000000000	2.5443215250785	576.92662253305
0.13050000000000	2.5712264341492	580.33749909213
0.13100000000000	2.5984569788241	583.76716564305
0.13150000000000	2.6260176294509	587.21582533800
0.13200000000000	2.6539129421081	590.68368400780
0.13250000000000	2.6821475601315	594.17095020774
0.13300000000000	2.7107262157363	597.67783526430
0.13350000000000	2.7396537316233	601.20455332289
0.13400000000000	2.7689350228505	604.75132139648
0.13450000000000	2.7985750984588	608.31835941535
0.13500000000000	2.8285790632864	611.90589027771
0.13550000000000	2.8589521200098	615.51413990152
0.13600000000000	2.8896995709167	619.14333727725
0.13650000000000	2.9208268199276	622.79371452187
0.13700000000000	2.9523393746653	626.46550693384
0.13750000000000	2.9842428483579	630.15895304937
0.13800000000000	3.0165429624265	633.87429469974
0.13850000000000	3.0492455481004	637.61177706997
0.13900000000000	3.0823565492828	641.37164875860
0.13950000000000	3.1158820242961	645.15416183886
0.14000000000000	3.1498281488445	648.95957192104
0.14050000000000	3.1842012181163	652.78813821629
0.14100000000000	3.2190076493639	656.64012360173
0.14150000000000	3.2542539845394	660.51579468698
0.14200000000000	3.2899468930617	664.41542188215
0.14250000000000	3.3260931744748	668.33927946729
0.14300000000000	3.3626997611120	672.28764566337
0.14350000000000	3.3997737214476	676.26080270482
0.14400000000000	3.4373222623949	680.25903691362
0.14450000000000	3.4753527329513	684.28263877510
0.14500000000000	3.5138726271994	688.33190301535
0.14550000000000	3.5528895873490	692.40712868042
0.14600000000000	3.5924114071982	696.50861921721
0.14650000000000	3.6324460354734	700.63668255626
0.14700000000000	3.6730015794182	704.79163119632
0.14750000000000	3.7140863084557	708.97378229089
0.14800000000000	3.7557086575838	713.18345773671
0.14850000000000	3.7978772315082	717.42098426422
0.14900000000000	3.8406008084704	721.68669353020
0.14950000000000	3.8838883440333	725.98092221236
0.15000000000000	3.9277489755855	730.30401210629
0.15050000000000	3.9721920262720	734.65631022452
0.15100000000000	4.0172270095400	739.03816889797
0.15150000000000	4.0628636336102	743.44994587967
0.15200000000000	4.1091118060479	747.89200445103
0.15250000000000	4.1559816384680	752.36471353048
0.15300000000000	4.2034834515056	756.86844778472
0.15350000000000	4.2516277799080	761.40358774268
0.15400000000000	4.3004253773935	765.97051991206
0.15450000000000	4.3498872223047	770.56963689873
0.15500000000000	4.4000245229496	775.20133752898
0.15550000000000	4.4508487232379	779.86602697469
0.15600000000000	4.5023715082192	784.56411688155
0.15650000000000	4.5546048106843	789.29602550037
0.15700000000000	4.6075608164600	794.06217782164
0.15750000000000	4.6612519715030	798.86300571324
0.15800000000000	4.7156909877805	803.69894806173
0.15850000000000	4.7708908503673	808.57045091697
0.15900000000000	4.8268648241624	813.47796764037
0.15950000000000	4.8836264608903	818.42195905687
0.16000000000000	4.9411896065514	823.40289361062
0.16050000000000	4.9995684090451	828.42124752466
0.16100000000000	5.0587773256614	833.47750496455
0.16150000000000	5.1188311311199	838.57215820619
0.16200000000000	5.1797449259158	843.70570780786
0.16250000000000	5.2415341449087	848.87866278665
0.16300000000000	5.3042145654721	854.09154079945
0.16350000000000	5.3678023172437	859.34486832855
0.16400000000000	5.4323138909066	864.63918087207
0.16450000000000	5.4977661479590	869.97502313927
0.16500000000000	5.5641763304826	875.35294925105
0.16550000000000	5.6315620713674	880.77352294557
0.16600000000000	5.6999414046689	886.23731778942
0.16650000000000	5.7693327767112	891.74491739421
0.16700000000000	5.8397550568675	897.29691563905
0.16750000000000	5.9112275496911	902.89391689885
0.16800000000000	5.9837700057042	908.53653627878
0.16850000000000	6.0574026346953	914.22539985501
0.16900000000000	6.1321461182082	919.96114492196
0.16950000000000	6.2080216219344	925.74442024627
0.17000000000000	6.2850508099589	931.57588632766
0.17050000000000	6.3632558582682	937.45621566694
0.17100000000000	6.4426594690642	943.38609304140
0.17150000000000	6.5232848860313	949.36621578779
0.17200000000000	6.6051559092013	955.39729409316
0.17250000000000	6.6882969111474	961.48005129381
0.17300000000000	6.7727328531492	967.61522418264
0.17350000000000	6.8584893020863	973.80356332505
0.17400000000000	6.9455924482047	980.04583338392
0.17450000000000	7.0340691228358	986.34281345369
0.17500000000000	7.1239468169597	992.69529740406
0.17550000000000	7.2152537014369	999.10409423349
0.17600000000000	7.3080186458834	1005.5700284329
0.17650000000000	7.4022712398952	1012.0939403601
0.17700000000000	7.4980418144438	1018.6766866245
0.17750000000000	7.5953614638852	1025.3191404840
0.17800000000000	7.6942620687204	1032.0221922526
0.17850000000000	7.7947763197940	1038.7867497209
0.17900000000000	7.8969377420817	1045.6137385884
0.17950000000000	8.0007807205660	1052.5041029088
0.18000000000000	8.1063405267933	1059.4588055493
0.18050000000000	8.2136533452430	1066.4788286627
0.18100000000000	8.3227563025772	1073.5651741746
0.18150000000000	8.4336874959068	1080.7188642853
0.18200000000000	8.5464860241304	1087.9409419864
0.18250000000000	8.6611920183213	1095.2324715943
0.18300000000000	8.7778466745883	1102.5945392993
0.18350000000000	8.8964922884929	1110.0282537323
0.18400000000000	9.0171722890955	1117.5347465489
0.18450000000000	9.1399312757612	1125.1151730319
0.18500000000000	9.2648150556421	1132.7707127131
0.18550000000000	9.3918706829846	1140.5025700143
0.18600000000000	9.5211464992634	1148.3119749089
0.18650000000000	9.6526921755532	1156.2001836050
0.18700000000000	9.7865587564472	1164.1684792504
0.18750000000000	9.9227987046704	1172.2181726600
0.18800000000000	10.061465948917	1180.3506030676
0.18850000000000	10.202615932861	1188.5671389017
0.18900000000000	10.346305664803	1196.8691785873
0.18950000000000	10.492593772339	1205.2581513738
0.19000000000000	10.641540555753	1213.7355181911
0.19050000000000	10.793208045754	1222.3027725337
0.19100000000000	10.947660062962	1230.9614413749
0.19150000000000	11.104962279852	1239.7130861119
0.19200000000000	11.265182283811	1248.5593035434
0.19250000000000	11.428389645759	1257.5017268797
0.19300000000000	11.594655988442	1266.5420267892
0.19350000000000	11.764055058985	1275.6819124792
0.19400000000000	11.936662805079	1284.9231328160
0.19450000000000	12.112557452870	1294.2674774837
0.19500000000000	12.291819588902	1303.7167781832
0.19550000000000	12.474532245217	1313.2729098748
