#Parameters = {GP=60; Linear_Spiral_cst_torrus_N=10; Linear_Spiral_cst_torrus_h=10; Linear_Spiral_cst_torrus_orientation=0; Linear_Spiral_cst_torrus_phi=30; Linear_Spiral_cst_torrus_ra=5; Linear_Spiral_cst_torrus_ri=5; Nturns=2; blend_radius=2; mainCoil_H=14; mainCoil_L=29; mainCoil_WG=0.5; mainCoil_winding_gap=2.55; mountingOffset=6; mountingThicnkess=18.1; turnLength=86}
#"Frequency / GHz"	"Z1,1 (1) [Re]"	"Z1,1 (1) [Im]"
#-------------------------------------------------
0.0000000000000	0.013741642939700	0.014575048141931
0.00050000000000000	0.021368124118274	0.54911367954952
0.0010000000000000	0.028119027669609	1.0830060905715
0.0015000000000000	0.034155044181821	1.6163383552324
0.0020000000000000	0.039600880521477	2.1491845537453
0.0025000000000000	0.044554562876922	2.6816083813424
0.0030000000000000	0.049094053237826	3.2136646823233
0.0035000000000000	0.053282026783119	3.7454008164899
0.0040000000000000	0.057169370348960	4.2768578354785
0.0045000000000000	0.060797778217539	4.8080714772605
0.0050000000000000	0.064201701829600	5.3390729989189
0.0055000000000000	0.067409830991299	5.8698898707921
0.0060000000000000	0.070446231154762	6.4005463541410
0.0065000000000000	0.073331225312880	6.9310639820339
0.0070000000000000	0.076082084207069	7.4614619602720
0.0075000000000000	0.078713571202761	7.9917575024253
0.0080000000000000	0.081238375931676	8.5219661105951
0.0085000000000000	0.083667462040519	9.0521018114321
0.0090000000000000	0.086010348057106	9.5821773551988
0.0095000000000000	0.088275335766298	10.112204384235
0.010000000000000	0.090469697084653	10.642193576021
0.010500000000000	0.092599827891510	11.172154765090
0.011000000000000	0.094671375376251	11.702097047262
0.011500000000000	0.096689344025887	12.232028869067
0.012000000000000	0.098658184282822	12.761958104716
0.012500000000000	0.10058186706362	13.291892122552
0.013000000000000	0.10246394667957	13.821837842614
0.013500000000000	0.10430761419528	14.351801786635
0.014000000000000	0.10611574286537	14.881790121610
0.014473000000000	0.10779586859811	15.383186828926
0.014500000000000	0.10789092697825	15.411808697860
0.015000000000000	0.10963551518778	15.941863082382
0.015500000000000	0.11135163921854	16.471958588145
0.016000000000000	0.11304123867101	17.002100299886
0.016500000000000	0.11470608252706	17.532293096897
0.017000000000000	0.11634778785354	18.062541673180
0.017500000000000	0.11796783611761	18.592850555329
0.018000000000000	0.11956758746018	19.123224118434
0.018500000000000	0.12114829321748	19.653666600247
0.019000000000000	0.12271110693530	20.184182113830
0.019500000000000	0.12425709408151	20.714774658872
0.020000000000000	0.12578724063262	21.245448131841
0.020500000000000	0.12730246068254	21.776206335093
0.021000000000000	0.12880360320002	22.307052985079
0.021500000000000	0.13029145804383	22.837991719737
0.022000000000000	0.13176676132806	23.369026105171
0.022500000000000	0.13323020021770	23.900159641695
0.023000000000000	0.13468241722438	24.431395769310
0.023500000000000	0.13612401405959	24.962737872672
0.024000000000000	0.13755555509989	25.494189285612
0.024500000000000	0.13897757050719	26.025753295253
0.025000000000000	0.14039055904357	26.557433145761
0.025500000000000	0.14179499061506	27.089232041772
0.026000000000000	0.14319130857419	27.621153151529
0.026500000000000	0.14457993180749	28.153199609750
0.027000000000000	0.14596125663036	28.685374520264
0.027500000000000	0.14733565851080	29.217680958430
0.028000000000000	0.14870349363855	29.750121973357
0.028500000000000	0.15006510035612	30.282700589958
0.029000000000000	0.15142080046553	30.815419810834
0.029500000000000	0.15277090042309	31.348282618021
0.030000000000000	0.15411569243339	31.881291974598
0.030500000000000	0.15545545545218	32.414450826181
0.031000000000000	0.15679045610621	32.947762102302
0.031500000000000	0.15812094953946	33.481228717697
0.032000000000000	0.15944718019040	34.014853573490
0.032500000000000	0.16076938250922	34.548639558301
0.033000000000000	0.16208778161812	35.082589549283
0.033500000000000	0.16340259392108	35.616706413074
0.034000000000000	0.16471402766701	36.150993006699
0.034500000000000	0.16602228347133	36.685452178404
0.035000000000000	0.16732755479804	37.220086768439
0.035500000000000	0.16863002840685	37.754899609793
0.036000000000000	0.16992988476825	38.289893528879
0.036500000000000	0.17122729844791	38.825071346175
0.037000000000000	0.17252243846568	39.360435876835
0.037500000000000	0.17381546862736	39.895989931253
0.038000000000000	0.17510654783516	40.431736315600
0.038500000000000	0.17639583037664	40.967677832328
0.039000000000000	0.17768346619391	41.503817280647
0.039500000000000	0.17896960113460	42.040157456969
0.040000000000000	0.18025437718752	42.576701155340
0.040500000000000	0.18153793270137	43.113451167835
0.041000000000000	0.18282040259071	43.650410284940
0.041500000000000	0.18410191852771	44.187581295917
0.042000000000000	0.18538260912320	44.724966989138
0.042500000000000	0.18666260009482	45.262570152419
0.043000000000000	0.18794201442570	45.800393573321
0.043500000000000	0.18922097251359	46.338440039451
0.044000000000000	0.19049959231145	46.876712338740
0.044500000000000	0.19177798945728	47.415213259710
0.045000000000000	0.19305627739961	47.953945591731
0.045500000000000	0.19433456751360	48.492912125266
0.046000000000000	0.19561296921044	49.032115652101
0.046500000000000	0.19689159004164	49.571558965577
0.047000000000000	0.19817053579611	50.111244860798
0.047500000000000	0.19944991059351	50.651176134841
0.048000000000000	0.20072981696977	51.191355586952
0.048500000000000	0.20201035596134	51.731786018740
0.049000000000000	0.20329162718208	52.272470234360
0.049500000000000	0.20457372889727	52.813411040689
0.050000000000000	0.20585675809348	53.354611247496
0.050500000000000	0.20714081054486	53.896073667613
0.051000000000000	0.20842598087595	54.437801117088
0.051500000000000	0.20971236262155	54.979796415344
0.052000000000000	0.21100004828246	55.522062385327
0.052500000000000	0.21228912938029	56.064601853653
0.053000000000000	0.21357969650765	56.607417650748
0.053500000000000	0.21487183937689	57.150512610985
0.054000000000000	0.21616564686747	57.693889572818
0.054500000000000	0.21746120706743	58.237551378913
0.055000000000000	0.21875860731750	58.781500876273
0.055500000000000	0.22005793425112	59.325740916360
0.056000000000000	0.22135927383024	59.870274355221
0.056500000000000	0.22266271138543	60.415104053600
0.057000000000000	0.22396833164601	60.960232877056
0.057500000000000	0.22527621877724	61.505663696078
0.058000000000000	0.22658645640932	62.051399386188
0.058500000000000	0.22789912766969	62.597442828060
0.059000000000000	0.22921431521001	63.143796907617
0.059500000000000	0.23053210123602	63.690464516141
0.060000000000000	0.23185256753289	64.237448550372
0.060500000000000	0.23317579549000	64.784751912614
0.061000000000000	0.23450186612749	65.332377510829
0.061500000000000	0.23583086011850	65.880328258736
0.062000000000000	0.23716285781116	66.428607075912
0.062500000000000	0.23849793925037	66.977216887881
0.063000000000000	0.23983618420074	67.526160626212
0.063500000000000	0.24117767216413	68.075441228612
0.064000000000000	0.24252248239934	68.625061639015
0.064500000000000	0.24387069394056	69.175024807673
0.065000000000000	0.24522238561687	69.725333691250
0.065500000000000	0.24657763606813	70.275991252905
0.066000000000000	0.24793652375993	70.827000462387
0.066500000000000	0.24929912700433	71.378364296114
0.067000000000000	0.25066552396997	71.930085737266
0.067500000000000	0.25203579269995	72.482167775871
0.068000000000000	0.25341001112663	73.034613408886
0.068500000000000	0.25478825708292	73.587425640283
0.069000000000000	0.25617060831913	74.140607481139
0.069500000000000	0.25755714251484	74.694161949710
0.070000000000000	0.25894793728919	75.248092071524
0.070500000000000	0.26034307021737	75.802400879456
0.071000000000000	0.26174261883828	76.357091413816
0.071500000000000	0.26314666067088	76.912166722430
0.072000000000000	0.26455527322092	77.467629860718
0.072500000000000	0.26596853399304	78.023483891783
0.073000000000000	0.26738652050443	78.579731886485
0.073500000000000	0.26880931029107	79.136376923526
0.074000000000000	0.27023698092070	79.693422089533
0.074500000000000	0.27166961000003	80.250870479132
0.075000000000000	0.27310727518746	80.808725195037
0.075500000000000	0.27455005419916	81.366989348123
0.076000000000000	0.27599802482004	81.925666057515
0.076500000000000	0.27745126491330	82.484758450657
0.077000000000000	0.27890985242570	83.044269663406
0.077500000000000	0.28037386540209	83.604202840099
0.078000000000000	0.28184338198587	84.164561133644
0.078500000000000	0.28331848043374	84.725347705594
0.079000000000000	0.28479923912060	85.286565726232
0.079500000000000	0.28628573654787	85.848218374645
0.080000000000000	0.28777805135119	86.410308838812
0.080500000000000	0.28927626230688	86.972840315681
0.081000000000000	0.29078044834231	87.535816011248
0.081500000000000	0.29229068853882	88.099239140642
0.082000000000000	0.29380706214220	88.663112928203
0.082500000000000	0.29532964856764	89.227440607563
0.083000000000000	0.29685852740988	89.792225421730
0.083500000000000	0.29839377844438	90.357470623167
0.084000000000000	0.29993548163820	90.923179473876
0.084500000000000	0.30148371715617	91.489355245475
0.085000000000000	0.30303856536676	92.056001219287
0.085500000000000	0.30460010684570	92.623120686417
0.086000000000000	0.30616842238835	93.190716947837
0.086500000000000	0.30774359301039	93.758793314469
0.087000000000000	0.30932569995803	94.327353107264
0.087500000000000	0.31091482470793	94.896399657294
0.088000000000000	0.31251104898205	95.465936305825
0.088500000000000	0.31411445474649	96.035966404410
0.089000000000000	0.31572512421832	96.606493314967
0.089500000000000	0.31734313987537	97.177520409868
0.090000000000000	0.31896858445971	97.749051072021
0.090500000000000	0.32060154098025	98.321088694955
0.091000000000000	0.32224209272242	98.893636682910
0.091500000000000	0.32389032325264	99.466698450916
0.092000000000000	0.32554631642432	100.04027742488
0.092500000000000	0.32721015638253	100.61437704169
0.093000000000000	0.32888192757128	101.18900074928
0.093500000000000	0.33056171473370	101.76415200671
0.094000000000000	0.33224960292490	102.33983428428
0.094500000000000	0.33394567751276	102.91605106362
0.095000000000000	0.33565002418326	103.49280583775
0.095500000000000	0.33736272895049	104.07010211120
0.096000000000000	0.33908387815223	104.64794340005
0.096500000000000	0.34081355846844	105.22633323210
0.097000000000000	0.34255185691474	105.80527514689
0.097500000000000	0.34429886085358	106.38477269581
0.098000000000000	0.34605465800094	106.96482944221
0.098500000000000	0.34781933642590	107.54544896147
0.099000000000000	0.34959298455966	108.12663484112
0.099500000000000	0.35137569120202	108.70839068088
0.10000000000000	0.35316754552365	109.29072009282
0.10050000000000	0.35496863707256	109.87362670141
0.10100000000000	0.35677905577573	110.45711414361
0.10150000000000	0.35859889195511	111.04118606901
0.10200000000000	0.36042823632140	111.62584613986
0.10250000000000	0.36226717997966	112.21109803123
0.10300000000000	0.36411581444496	112.79694543107
0.10350000000000	0.36597423163787	113.38339204031
0.10400000000000	0.36784252389116	113.97044157296
0.10450000000000	0.36972078395938	114.55809775621
0.10500000000000	0.37160910501847	115.14636433054
0.10550000000000	0.37350758067542	115.73524504981
0.10600000000000	0.37541630497139	116.32474368134
0.10650000000000	0.37733537238736	116.91486400603
0.10700000000000	0.37926487785155	117.50560981849
0.10750000000000	0.38120491673486	118.09698492707
0.10800000000000	0.38315558487686	118.68899315403
0.10850000000000	0.38511697856634	119.28163833561
0.10900000000000	0.38708919456337	119.87492432214
0.10950000000000	0.38907233010028	120.46885497813
0.11000000000000	0.39106648288535	121.06343418241
0.11050000000000	0.39307175110727	121.65866582821
0.11100000000000	0.39508823344753	122.25455382327
0.11150000000000	0.39711602907574	122.85110208992
0.11200000000000	0.39915523766415	123.44831456526
0.11250000000000	0.40120595938365	124.04619520119
0.11300000000000	0.40326829492146	124.64474796457
0.11350000000000	0.40534234547420	125.24397683729
0.11400000000000	0.40742821276470	125.84388581643
0.11450000000000	0.40952599903537	126.44447891432
0.11500000000000	0.41163580706649	127.04576015868
0.11550000000000	0.41375774016930	127.64773359272
0.11600000000000	0.41589190220776	128.25040327529
0.11650000000000	0.41803839758125	128.85377328092
0.11700000000000	0.42019733125837	129.45784770000
0.11750000000000	0.42236880875486	130.06263063888
0.11800000000000	0.42455293616042	130.66812621997
0.11850000000000	0.42674982013287	131.27433858188
0.11900000000000	0.42895956790808	131.88127187949
0.11950000000000	0.43118228730751	132.48893028414
0.12000000000000	0.43341808673747	133.09731798370
0.12050000000000	0.43566707520570	133.70643918271
0.12100000000000	0.43792936231328	134.31629810246
0.12150000000000	0.44020505827516	134.92689898119
0.12200000000000	0.44249427391916	135.53824607415
0.12250000000000	0.44479712068770	136.15034365373
0.12300000000000	0.44711371065298	136.76319600961
0.12350000000000	0.44944415651908	137.37680744886
0.12400000000000	0.45178857162177	137.99118229609
0.12450000000000	0.45414706994912	138.60632489356
0.12500000000000	0.45651976613902	139.22223960131
0.12550000000000	0.45890677547898	139.83893079729
0.12600000000000	0.46130821392576	140.45640287748
0.12650000000000	0.46372419810264	141.07466025605
0.12700000000000	0.46615484531176	141.69370736546
0.12750000000000	0.46860027353954	142.31354865661
0.12800000000000	0.47106060145452	142.93418859896
0.12850000000000	0.47353594842870	143.55563168069
0.12900000000000	0.47602643453275	144.17788240880
0.12950000000000	0.47853218054368	144.80094530927
0.13000000000000	0.48105330796536	145.42482492718
0.13050000000000	0.48358993901238	146.04952582688
0.13100000000000	0.48614219663567	146.67505259210
0.13150000000000	0.48871020452337	147.30140982608
0.13200000000000	0.49129408710261	147.92860215177
0.13250000000000	0.49389396955528	148.55663421189
0.13300000000000	0.49650997782190	149.18551066913
0.13350000000000	0.49914223860617	149.81523620630
0.13400000000000	0.50179087938047	150.44581552642
0.13450000000000	0.50445602840850	151.07725335293
0.13500000000000	0.50713781472753	151.70955442979
0.13550000000000	0.50983636817109	152.34272352167
0.13600000000000	0.51255181938676	152.97676541404
0.13650000000000	0.51528429981802	153.61168491340
0.13700000000000	0.51803394173286	154.24748684736
0.13750000000000	0.52080087821733	154.88417606484
0.13800000000000	0.52358524319950	155.52175743619
0.13850000000000	0.52638717143428	156.16023585339
0.13900000000000	0.52920679853878	156.79961623016
0.13950000000000	0.53204426097423	157.43990350213
0.14000000000000	0.53489969607303	158.08110262702
0.14050000000000	0.53777324203706	158.72321858479
0.14100000000000	0.54066503794829	159.36625637778
0.14150000000000	0.54357522377571	160.01022103091
0.14200000000000	0.54650394038886	160.65511759181
0.14250000000000	0.54945132955692	161.30095113099
0.14300000000000	0.55241753396509	161.94772674205
0.14350000000000	0.55540269721861	162.59544954177
0.14400000000000	0.55840696385795	163.24412467035
0.14450000000000	0.56143047935456	163.89375729154
0.14500000000000	0.56447339013929	164.54435259283
0.14550000000000	0.56753584358368	165.19591578562
0.14600000000000	0.57061798803564	165.84845210536
0.14650000000000	0.57371997281906	166.50196681180
0.14700000000000	0.57684194823278	167.15646518909
0.14750000000000	0.57998406557431	167.81195254601
0.14800000000000	0.58314647713938	168.46843421610
0.14850000000000	0.58632933623776	169.12591555792
0.14900000000000	0.58953279719751	169.78440195513
0.14950000000000	0.59275701537517	170.44389881677
0.15000000000000	0.59600214717249	171.10441157738
0.15050000000000	0.59926835003396	171.76594569721
0.15100000000000	0.60255578246413	172.42850666242
0.15150000000000	0.60586460404105	173.09209998524
0.15200000000000	0.60919497541737	173.75673120421
0.15250000000000	0.61254705832907	174.42240588430
0.15300000000000	0.61592101561924	175.08912961717
0.15350000000000	0.61931701123504	175.75690802134
0.15400000000000	0.62273521024844	176.42574674239
0.15450000000000	0.62617577885180	177.09565145314
0.15500000000000	0.62963888438508	177.76662785389
0.15550000000000	0.63312469533096	178.43868167260
0.15600000000000	0.63663338134615	179.11181866507
0.15650000000000	0.64016511324460	179.78604461519
0.15700000000000	0.64372006303522	180.46136533513
0.15750000000000	0.64729840391338	181.13778666553
0.15800000000000	0.65090031028281	181.81531447574
0.15850000000000	0.65452595776536	182.49395466400
0.15900000000000	0.65817552320546	183.17371315770
0.15950000000000	0.66184918468629	183.85459591353
0.16000000000000	0.66554712154880	184.53660891777
0.16050000000000	0.66926951439117	185.21975818645
0.16100000000000	0.67301654508801	185.90404976561
0.16150000000000	0.67678839679200	186.58948973150
0.16200000000000	0.68058525396570	187.27608419081
0.16250000000000	0.68440730237484	187.96383928090
0.16300000000000	0.68825472910624	188.65276117004
0.16350000000000	0.69212772259002	189.34285605761
0.16400000000000	0.69602647259241	190.03413017435
0.16450000000000	0.69995117024628	190.72658978260
0.16500000000000	0.70390200805655	191.42024117653
0.16550000000000	0.70787917990792	192.11509068238
0.16600000000000	0.71188288109168	192.81114465868
0.16650000000000	0.71591330830912	193.50840949652
0.16700000000000	0.71997065967964	194.20689161979
0.16750000000000	0.72405513476889	194.90659748541
0.16800000000000	0.72816693458690	195.60753358358
0.16850000000000	0.73230626162554	196.30970643806
0.16900000000000	0.73647331982958	197.01312260637
0.16950000000000	0.74066831466095	197.71778868009
0.17000000000000	0.74489145307080	198.42371128511
0.17050000000000	0.74914294355317	199.13089708184
0.17100000000000	0.75342299611151	199.83935276556
0.17150000000000	0.75773182232363	200.54908506660
0.17200000000000	0.76206963531664	201.26010075064
0.17250000000000	0.76643664981064	201.97240661899
0.17300000000000	0.77083308210235	202.68600950883
0.17350000000000	0.77525915012119	203.40091629351
0.17400000000000	0.77971507340682	204.11713388280
0.17450000000000	0.78420107314380	204.83466922319
0.17500000000000	0.78871737217665	205.55352929816
0.17550000000000	0.79326419501158	206.27372112844
0.17600000000000	0.79784176785652	206.99525177233
0.17650000000000	0.80245031862012	207.71812832598
0.17700000000000	0.80709007692316	208.44235792364
0.17750000000000	0.81176127413274	209.16794773802
0.17800000000000	0.81646414336437	209.89490498051
0.17850000000000	0.82119891950695	210.62323690153
0.17900000000000	0.82596583924461	211.35295079081
0.17950000000000	0.83076514104784	212.08405397769
0.18000000000000	0.83559706522808	212.81655383142
0.18050000000000	0.84046185390958	213.55045776149
0.18100000000000	0.84535975111831	214.28577321792
0.18150000000000	0.85029100270912	215.02250769156
0.18200000000000	0.85525585645902	215.76066871446
0.18250000000000	0.86025456204077	216.50026386011
0.18300000000000	0.86528737106763	217.24130074382
0.18350000000000	0.87035453709658	217.98378702303
0.18400000000000	0.87545631566248	218.72773039763
0.18450000000000	0.88059296426724	219.47313861027
0.18500000000000	0.88576474242942	220.22001944675
0.18550000000000	0.89097191169717	220.96838073629
0.18600000000000	0.89621473565257	221.71823035192
0.18650000000000	0.90149347995391	222.46957621077
0.18700000000000	0.90680841234858	223.22242627449
0.18750000000000	0.91215980266346	223.97678854950
0.18800000000000	0.91754792288414	224.73267108742
0.18850000000000	0.92297304711823	225.49008198541
0.18900000000000	0.92843545165609	226.24902938647
0.18950000000000	0.93393541497649	227.00952147989
0.19000000000000	0.93947321775485	227.77156650155
0.19050000000000	0.94504914291798	228.53517273429
0.19100000000000	0.95066347562483	229.30034850830
0.19150000000000	0.95631650334607	230.06710220152
