#Parameters = {GP=60; Linear_Spiral_cst_torrus_N=10; Linear_Spiral_cst_torrus_h=10; Linear_Spiral_cst_torrus_orientation=0; Linear_Spiral_cst_torrus_phi=30; Linear_Spiral_cst_torrus_ra=5; Linear_Spiral_cst_torrus_ri=5; Nturns=3; blend_radius=2; mainCoil_H=22; mainCoil_L=29; mainCoil_WG=0.5; mainCoil_winding_gap=2.55; mountingOffset=6; mountingThicnkess=21.15; turnLength=102}
#"Frequency / GHz"	"Z1,1 [Real/Imaginary Part] [Re]"	"Z1,1 [Real/Imaginary Part] [Im]"
#-------------------------------------------------------------------------------------
0.0000000000000	0.021173980871288	0.022291158173466
0.00050000000000000	0.036920435913475	1.2826430487728
0.0010000000000000	0.050335544640480	2.5411148179026
0.0014990000000000	0.061698034299345	3.7952771270499
0.0015000000000000	0.061718955461772	3.7977887423757
0.0020000000000000	0.071336429960991	5.0527603118811
0.0025000000000000	0.079422940610917	6.3061339745479
0.0030000000000000	0.086185703015292	7.5580197727610
0.0035000000000000	0.091807064902605	8.8085307153015
0.0040000000000000	0.096447205300130	10.057780752128
0.0045000000000000	0.10024661971771	11.305883237823
0.0050000000000000	0.10332838282376	12.552949787921
0.0055000000000000	0.10580019068001	13.799089448559
0.0060000000000000	0.10775619144822	15.044408114009
0.0065000000000000	0.10927861762489	16.289008138676
0.0070000000000000	0.11043923508740	17.532988100298
0.0075000000000000	0.11130062513619	18.776442679508
0.0080000000000000	0.11191731572398	20.019462627883
0.0085000000000000	0.11233677749868	21.262134802275
0.0090000000000000	0.11260029936533	22.504542247885
0.0095000000000000	0.11274375716706	23.746764316232
0.010000000000000	0.11279828789046	24.988876807241
0.010500000000000	0.11279088059686	26.230952127053
0.011000000000000	0.11274489412413	27.473059455095
0.011500000000000	0.11268051049550	28.715264915490
0.012000000000000	0.11261513196302	29.957631749102
0.012500000000000	0.11256372868068	31.200220483455
0.013000000000000	0.11253914316788	32.443089098533
0.013500000000000	0.11255235696770	33.686293187057
0.014000000000000	0.11261272425027	34.929886108264
0.014500000000000	0.11272817649668	36.173919134605
0.015000000000000	0.11290540191103	37.418441591016
0.015500000000000	0.11315000271025	38.663500986641
0.016000000000000	0.11346663307932	39.909143139018
0.016500000000000	0.11385912019715	41.155412290876
0.017000000000000	0.11433057044959	42.402351219745
0.017500000000000	0.11488346266467	43.650001340657
0.018000000000000	0.11551972998439	44.898402802250
0.018500000000000	0.11624083177346	46.147594576590
0.019000000000000	0.11704781679728	47.397614543052
0.019500000000000	0.11794137872279	48.648499566634
0.020000000000000	0.11892190490288	49.900285570997
0.020500000000000	0.11998951924799	51.153007606590
0.021000000000000	0.12114411990801	52.406699914185
0.021500000000000	0.12238541237752	53.661395984106
0.022000000000000	0.12371293860774	54.917128611466
0.022500000000000	0.12512610255966	56.173929947676
0.023000000000000	0.12662419267239	57.431831548494
0.023500000000000	0.12820640156776	58.690864418853
0.024000000000000	0.12987184335947	59.951059054701
0.024500000000000	0.13161956882250	61.212445482068
0.025000000000000	0.13344857869384	62.475053293564
0.025500000000000	0.13535783531155	63.738911682481
0.026000000000000	0.13734627279550	65.004049474692
0.026500000000000	0.13941280595225	66.270495158482
0.027000000000000	0.14155633802032	67.538276912492
0.027500000000000	0.14377576742529	68.807422631895
0.028000000000000	0.14606999364890	70.077959952920
0.028500000000000	0.14843792231593	71.349916275881
0.029000000000000	0.15087846958815	72.623318786778
0.029500000000000	0.15339056594328	73.898194477611
0.030000000000000	0.15597315943024	75.174570165467
0.030500000000000	0.15862521844431	76.452472510488
0.031000000000000	0.16134573406607	77.731928032807
0.031500000000000	0.16413372208361	79.012963128485
0.032000000000000	0.16698822461055	80.295604084594
0.032500000000000	0.16990831149769	81.579877093423
0.033000000000000	0.17289308144966	82.865808265926
0.033500000000000	0.17594166292391	84.153423644452
0.034000000000000	0.17905321485465	85.442749214797
0.034500000000000	0.18222692718374	86.733810917646
0.035000000000000	0.18546202127113	88.026634659407
0.035500000000000	0.18875775014729	89.321246322546
0.036000000000000	0.19211339867943	90.617671775386
0.036500000000000	0.19552828362089	91.915936881458
0.037000000000000	0.19900175358111	93.216067508424
0.037500000000000	0.20253318893659	94.518089536566
0.038000000000000	0.20612200164892	95.822028866950
0.038500000000000	0.20976763507269	97.127911429171
0.039000000000000	0.21346956367596	98.435763188848
0.039500000000000	0.21722729274576	99.745610154766
0.040000000000000	0.22104035806228	101.05747838574
0.040500000000000	0.22490832554089	102.37139399723
0.041000000000000	0.22883079083889	103.68738316772
0.041500000000000	0.23280737898510	105.00547214486
0.042000000000000	0.23683774395609	106.32568725137
0.042500000000000	0.24092156826075	107.64805489077
0.043000000000000	0.24505856252994	108.97260155296
0.043500000000000	0.24924846506512	110.29935381957
0.044000000000000	0.25349104143411	111.62833836919
0.044500000000000	0.25778608401532	112.95958198244
0.045000000000000	0.26213341160055	114.29311154690
0.045500000000000	0.26653286895138	115.62895406192
0.046000000000000	0.27098432638499	116.96713664335
0.046500000000000	0.27548767936771	118.30768652804
0.047000000000000	0.28004284810452	119.65063107844
0.047500000000000	0.28464977713728	120.99599778688
0.048000000000000	0.28930843496457	122.34381427995
0.048500000000000	0.29401881366696	123.69410832269
0.049000000000000	0.29878092851332	125.04690782278
0.049500000000000	0.30359481763009	126.40224083459
0.050000000000000	0.30846054162753	127.76013556324
0.050500000000000	0.31337818327058	129.12062036858
0.051000000000000	0.31834784716060	130.48372376907
0.051500000000000	0.32336965939289	131.84947444572
0.052000000000000	0.32844376727531	133.21790124589
0.052500000000000	0.33357033902237	134.58903318709
0.053000000000000	0.33874956346756	135.96289946080
0.053500000000000	0.34398164979452	137.33952943615
0.054000000000000	0.34926682727484	138.71895266368
0.054500000000000	0.35460534502527	140.10119887902
0.055000000000000	0.35999747175269	141.48629800658
0.055500000000000	0.36544349553560	142.87428016322
0.056000000000000	0.37094372360041	144.26517566188
0.056500000000000	0.37649848213287	145.65901501525
0.057000000000000	0.38210811605240	147.05582893941
0.057500000000000	0.38777298883591	148.45564835744
0.058000000000000	0.39349348236394	149.85850440309
0.058500000000000	0.39926999671868	151.26442842441
0.059000000000000	0.40510295007195	152.67345198737
0.059500000000000	0.41099277849285	154.08560687953
0.060000000000000	0.41693993584858	155.50092511370
0.060500000000000	0.42294489365254	156.91943893161
0.061000000000000	0.42900814097499	158.34118080758
0.061500000000000	0.43513018432001	159.76618345221
0.062000000000000	0.44131154752113	161.19447981614
0.062500000000000	0.44755277165594	162.62610309371
0.063000000000000	0.45385441498677	164.06108672679
0.063500000000000	0.46021705286244	165.49946440850
0.064000000000000	0.46664127767706	166.94127008703
0.064500000000000	0.47312769880294	168.38653796948
0.065000000000000	0.47967694253940	169.83530252568
0.065500000000000	0.48628965211055	171.28759849210
0.066000000000000	0.49296648758615	172.74346087576
0.066500000000000	0.49970812590900	174.20292495816
0.067000000000000	0.50651526084963	175.66602629928
0.067500000000000	0.51338860301283	177.13280074157
0.068000000000000	0.52032887985404	178.60328441402
0.068500000000000	0.52733683566081	180.07751373626
0.069000000000000	0.53441323161180	181.55552542264
0.069500000000000	0.54155884576166	183.03735648647
0.070000000000000	0.54877447310369	184.52304424417
0.070500000000000	0.55606092559605	186.01262631957
0.071000000000000	0.56341903223155	187.50614064821
0.071500000000000	0.57084963905243	189.00362548164
0.072000000000000	0.57835360925978	190.50511939190
0.072500000000000	0.58593182326909	192.01066127590
0.073000000000000	0.59358517876623	193.52029035996
0.073500000000000	0.60131459082483	195.03404620432
0.074000000000000	0.60912099197228	196.55196870780
0.074500000000000	0.61700533230803	198.07409811243
0.075000000000000	0.62496857959764	199.60047500818
0.075500000000000	0.63301171939767	201.13114033770
0.076000000000000	0.64113575515230	202.66613540122
0.076500000000000	0.64934170836282	204.20550186141
0.077000000000000	0.65763061867736	205.74928174835
0.077500000000000	0.66600354404984	207.29751746453
0.078000000000000	0.67446156089720	208.85025179000
0.078500000000000	0.68300576425257	210.40752788746
0.079000000000000	0.69163726790958	211.96938930755
0.079500000000000	0.70035720460901	213.53587999408
0.080000000000000	0.70916672621288	215.10704428947
0.080500000000000	0.71806700389589	216.68292694014
0.081000000000000	0.72705922829752	218.26357310205
0.081500000000000	0.73614460977400	219.84902834629
0.082000000000000	0.74532437857791	221.43933866474
0.082500000000000	0.75459978504196	223.03455047586
0.083000000000000	0.76397209986612	224.63471063048
0.083500000000000	0.77344261427423	226.23986641774
0.084000000000000	0.78301264029238	227.85006557107
0.084500000000000	0.79268351097592	229.46535627432
0.085000000000000	0.80245658066817	231.08578716790
0.085500000000000	0.81233322523582	232.71140735506
0.086000000000000	0.82231484233776	234.34226640825
0.086500000000000	0.83240285173450	235.97841437557
0.087000000000000	0.84259869552586	237.61990178733
0.087500000000000	0.85290383844859	239.26677966266
0.088000000000000	0.86331976818060	240.91909951634
0.088500000000000	0.87384799564673	242.57691336554
0.089000000000000	0.88449005532022	244.24027373685
0.089500000000000	0.89524750555295	245.90923367331
0.090000000000000	0.90612192889581	247.58384674160
0.090500000000000	0.91711493242768	249.26416703928
0.091000000000000	0.92822814816243	250.95024920220
0.091500000000000	0.93946323329808	252.64214841199
0.092000000000000	0.95082187066388	254.33992040372
0.092500000000000	0.96230576909761	256.04362147358
0.093000000000000	0.97391666375716	257.75330848679
0.093500000000000	0.98565631657308	259.46903888556
0.094000000000000	0.99752651662797	261.19087069722
0.094500000000000	1.0095290805693	262.91886254242
0.095000000000000	1.0216658530499	264.65307364357
0.095500000000000	1.0339387071189	266.39356383327
0.096000000000000	1.0463495446898	268.14039356301
0.096500000000000	1.0589002970010	269.89362391192
0.097000000000000	1.0715929250331	271.65331659573
0.097500000000000	1.0844294200650	273.41953397578
0.098000000000000	1.0974118040491	275.19233906830
0.098500000000000	1.1105421301944	276.97179555375
0.099000000000000	1.1238224834363	278.75796778634
0.099500000000000	1.1372549809614	280.55092080371
0.10000000000000	1.1508417727353	282.35072033679
0.10050000000000	1.1645850420364	284.15743281979
0.10100000000000	1.1784870060292	285.97112540035
0.10150000000000	1.1925499163228	287.79186594992
0.10200000000000	1.2067760595465	289.61972307425
0.10250000000000	1.2211677579455	291.45476612410
0.10300000000000	1.2357273699796	293.29706520608
0.10350000000000	1.2504572909705	295.14669119374
0.10400000000000	1.2653599537085	297.00371573879
0.10450000000000	1.2804378291049	298.86821128256
0.10500000000000	1.2956934268492	300.74025106763
0.10550000000000	1.3111292961331	302.61990914964
0.10600000000000	1.3267480262600	304.50726040935
0.10650000000000	1.3425522474604	306.40238056488
0.10700000000000	1.3585446314910	308.30534618416
0.10750000000000	1.3747278924954	310.21623469763
0.10800000000000	1.3911047876892	312.13512441109
0.10850000000000	1.4076781181539	314.06209451889
0.10900000000000	1.4244507296208	315.99722511723
0.10950000000000	1.4414255133159	317.94059721776
0.11000000000000	1.4586054067329	319.89229276142
0.11050000000000	1.4759933945297	321.85239463254
0.11100000000000	1.4935925093565	323.82098667312
0.11150000000000	1.5114058327765	325.79815369744
0.11200000000000	1.5294364961445	327.78398150691
0.11250000000000	1.5476876815206	329.77855690517
0.11300000000000	1.5661626227003	331.78196771349
0.11350000000000	1.5848646060280	333.79430278641
0.11400000000000	1.6037969715689	335.81565202773
0.11450000000000	1.6229631139811	337.84610640670
0.11500000000000	1.6423664836076	339.88575797463
0.11550000000000	1.6620105875613	341.93469988163
0.11600000000000	1.6818989907625	343.99302639387
0.11650000000000	1.7020353170600	346.06083291096
0.11700000000000	1.7224232503664	348.13821598382
0.11750000000000	1.7430665358468	350.22527333273
0.11800000000000	1.7639689810653	352.32210386586
0.11850000000000	1.7851344572140	354.42880769801
0.11900000000000	1.8065669003598	356.54548616985
0.11950000000000	1.8282703127463	358.67224186736
0.12000000000000	1.8502487640106	360.80917864180
0.12050000000000	1.8725063925931	362.95640162991
0.12100000000000	1.8950474070601	365.11401727462
0.12150000000000	1.9178760875558	367.28213334608
0.12200000000000	1.9409967871376	369.46085896309
0.12250000000000	1.9644139333039	371.65030461500
0.12300000000000	1.9881320294698	373.85058218400
0.12350000000000	2.0121556565152	376.06180496780
0.12400000000000	2.0364894742871	378.28408770283
0.12450000000000	2.0611382233047	380.51754658783
0.12500000000000	2.0861067263140	382.76229930794
0.12550000000000	2.1113998900187	385.01846505925
0.12600000000000	2.1370227068055	387.28616457378
0.12650000000000	2.1629802564430	389.56552014507
0.12700000000000	2.1892777079811	391.85665565418
0.12750000000000	2.2159203215139	394.15969659623
0.12800000000000	2.2429134501405	396.47477010748
0.12850000000000	2.2702625418751	398.80200499298
0.12900000000000	2.2979731416169	401.14153175469
0.12950000000000	2.3260508932450	403.49348262026
0.13000000000000	2.3545015416196	405.85799157235
0.13050000000000	2.3833309348029	408.23519437855
0.13100000000000	2.4125450261985	410.62522862188
0.13150000000000	2.4421498768080	413.02823373200
0.13200000000000	2.4721516575456	415.44435101693
0.13250000000000	2.5025566515455	417.87372369557
0.13300000000000	2.5333712566661	420.31649693074
0.13350000000000	2.5646019879143	422.77281786305
0.13400000000000	2.5962554799052	425.24283564538
0.13450000000000	2.6283384896277	427.72670147808
0.13500000000000	2.6608578990283	430.22456864498
0.13550000000000	2.6938207177148	432.73659255008
0.13600000000000	2.7272340858201	435.26293075506
0.13650000000000	2.7611052768335	437.80374301756
0.13700000000000	2.7954417005980	440.35919133029
0.13750000000000	2.8302509063321	442.92943996094
0.13800000000000	2.8655405856959	445.51465549303
0.13850000000000	2.9013185759807	448.11500686751
0.13900000000000	2.9375928634620	450.73066542538
0.13950000000000	2.9743715866283	453.36180495113
0.14000000000000	3.0116630396883	456.00860171723
0.14050000000000	3.0494756761408	458.67123452946
0.14100000000000	3.0878181123506	461.34988477335
0.14150000000000	3.1266991312195	464.04473646159
0.14200000000000	3.1661276860804	466.75597628247
0.14250000000000	3.2061129046660	469.48379364940
0.14300000000000	3.2466640930067	472.22838075158
0.14350000000000	3.2877907395844	474.98993260570
0.14400000000000	3.3295025197586	477.76864710890
0.14450000000000	3.3718092997891	480.56472509285
0.14500000000000	3.4147211416753	483.37837037907
0.14550000000000	3.4582483075221	486.20978983552
0.14600000000000	3.5024012642637	489.05919343443
0.14650000000000	3.5471906887012	491.92679431152
0.14700000000000	3.5926274722903	494.81280882646
0.14750000000000	3.6387227263804	497.71745662489
0.14800000000000	3.6854877874478	500.64096070166
0.14850000000000	3.7329342224586	503.58354746573
0.14900000000000	3.7810738345197	506.54544680647
0.14950000000000	3.8299186685616	509.52689216150
0.15000000000000	3.8794810171643	512.52812058618
0.15050000000000	3.9297734267527	515.54937282469
0.15100000000000	3.9808087036148	518.59089338282
0.15150000000000	4.0325999204016	521.65293060242
0.15200000000000	4.0851604227569	524.73573673772
0.15250000000000	4.1385038359552	527.83956803340
0.15300000000000	4.1926440719779	530.96468480453
0.15350000000000	4.2475953365311	534.11135151849
0.15400000000000	4.3033721366176	537.27983687883
0.15450000000000	4.3599892879342	540.47041391117
0.15500000000000	4.4174619226785	543.68336005120
0.15550000000000	4.4758054977881	546.91895723483
0.15600000000000	4.5350358029473	550.17749199058
0.15650000000000	4.5951689691995	553.45925553419
0.15700000000000	4.6562214778058	556.76454386563
0.15750000000000	4.7182101691345	560.09365786852
0.15800000000000	4.7811522520623	563.44690341201
0.15850000000000	4.8450653134371	566.82459145522
0.15900000000000	4.9099673280083	570.22703815434
0.15950000000000	4.9758766686493	573.65456497236
0.16000000000000	5.0428121166420	577.10749879172
0.16050000000000	5.1107928726679	580.58617202974
0.16100000000000	5.1798385678494	584.09092275698
0.16150000000000	5.2499692751941	587.62209481876
0.16200000000000	5.3212055214586	591.18003795972
0.16250000000000	5.3935682992148	594.76510795164
0.16300000000000	5.4670790796550	598.37766672464
0.16350000000000	5.5417598252146	602.01808250175
0.16400000000000	5.6176330032592	605.68672993706
0.16450000000000	5.6947215997751	609.38399025747
0.16500000000000	5.7730491333961	613.11025140830
0.16550000000000	5.8526396703875	616.86590820266
0.16600000000000	5.9335178395997	620.65136247491
0.16650000000000	6.0157088480782	624.46702323820
0.16700000000000	6.0992384974315	628.31330684628
0.16750000000000	6.1841332002633	632.19063715969
0.16800000000000	6.2704199973676	636.09944571651
0.16850000000000	6.3581265758179	640.04017190774
0.16900000000000	6.4472812867357	644.01326315755
0.16950000000000	6.5379131650309	648.01917510845
0.17000000000000	6.6300519481725	652.05837181167
0.17050000000000	6.7237280970671	656.13132592280
0.17100000000000	6.8189728165682	660.23851890297
0.17150000000000	6.9158180773584	664.38044122556
0.17200000000000	7.0142966380768	668.55759258896
0.17250000000000	7.1144420685573	672.77048213518
0.17300000000000	7.2162887738296	677.01962867481
0.17350000000000	7.3198720185783	681.30556091841
0.17400000000000	7.4252279528682	685.62881771458
0.17450000000000	7.5323936385986	689.98994829490
0.17500000000000	7.6414070766823	694.38951252601
0.17550000000000	7.7523072357258	698.82808116906
0.17600000000000	7.8651340809547	703.30623614680
0.17650000000000	7.9799286048005	707.82457081856
0.17700000000000	8.0967328582360	712.38369026332
0.17750000000000	8.2155899833283	716.98421157136
0.17800000000000	8.3365442470638	721.62676414450
0.17850000000000	8.4596410760066	726.31199000549
0.17900000000000	8.5849270926049	731.04054411675
0.17950000000000	8.7124501528133	735.81309470875
0.18000000000000	8.8422593846602	740.63032361850
0.18050000000000	8.9744052289181	745.49292663842
0.18100000000000	9.1089394802517	750.40161387599
0.18150000000000	9.2459153313113	755.35711012454
0.18200000000000	9.3853874171162	760.36015524570
0.18250000000000	9.5274118617177	765.41150456374
0.18300000000000	9.6720463266779	770.51192927244
0.18350000000000	9.8193500611479	775.66221685483
0.18400000000000	9.9693839542076	780.86317151628
0.18450000000000	10.122210588559	786.11561463151
0.18500000000000	10.277894296987	791.42038520602
0.18550000000000	10.436501220479	796.77834035242
0.18600000000000	10.598099368976	802.19035578228
0.18650000000000	10.762758684207	807.65732631413
0.18700000000000	10.930551105232	813.18016639814
0.18750000000000	11.101550636463	818.75981065820
0.18800000000000	11.275833417875	824.39721445201
0.18850000000000	11.453477799305	830.09335444997
0.18900000000000	11.634564416505	835.84922923352
0.18950000000000	11.819176270559	841.66585991376
0.19000000000000	12.007398810944	847.54429077107
0.19050000000000	12.199320021417	853.48558991672
0.19100000000000	12.395030510189	859.49084997719
0.19150000000000	12.594623602587	865.56118880223
0.19200000000000	12.798195438735	871.69775019754
0.19250000000000	13.005845075122	877.90170468315
0.19300000000000	13.217674589648	884.17425027852
